
T4F14 000:386 SEGGER J-Link V4.96d Log File (0002ms, 0276ms total)
T4F14 000:386 DLL Compiled: Jan 29 2015 11:45:37 (0002ms, 0276ms total)
T4F14 000:386 Logging started @ 2020-04-26 00:03 (0003ms, 0277ms total)
T4F14 000:389 JLINK_SetWarnOutHandler(...) (0000ms, 0277ms total)
T4F14 000:389 JLINK_OpenEx(...)
Firmware: J-Link ARM-OB STM32 compiled Aug 22 2012 19:52:04
Hardware: V7.00
S/N: 20090928
Feature(s): RDI,FlashDL,FlashBP,JFlash,GDBFull  returns O.K. (0268ms, 0545ms total)
T4F14 000:657 JLINK_SetErrorOutHandler(...) (0000ms, 0545ms total)
T4F14 000:657 JLINK_ExecCommand("ProjectFile = "C:\Users\Lee Young\Desktop\独轮机器人\V1.2\自平衡独轮机器人\USER\JLinkSettings.ini"", ...)  returns 0x00 (0002ms, 0547ms total)
T4F14 000:667 JLINK_ExecCommand("Device = STM32F103C8", ...)Device "STM32F103C8" selected.  returns 0x00 (0014ms, 0561ms total)
T4F14 000:681 JLINK_ExecCommand("DisableConnectionTimeout", ...)  returns 0x01 (0000ms, 0561ms total)
T4F14 000:681 JLINK_GetHardwareVersion()  returns 0x11170 (0000ms, 0561ms total)
T4F14 000:681 JLINK_GetDLLVersion()  returns 49604 (0000ms, 0561ms total)
T4F14 000:681 JLINK_GetFirmwareString(...) (0000ms, 0561ms total)
T4F14 000:728 JLINK_GetDLLVersion()  returns 49604 (0000ms, 0561ms total)
T4F14 000:728 JLINK_GetCompileDateTime() (0000ms, 0561ms total)
T4F14 000:738 JLINK_GetFirmwareString(...) (0000ms, 0561ms total)
T4F14 000:749 JLINK_GetHardwareVersion()  returns 0x11170 (0000ms, 0561ms total)
T4F14 000:781 JLINK_TIF_Select(JLINKARM_TIF_SWD)  returns 0x00 (0001ms, 0562ms total)
T4F14 000:782 JLINK_SetSpeed(5000) (0000ms, 0562ms total)
T4F14 000:782 JLINK_GetId() >0x108 TIF>Found SWD-DP with ID 0x1BA01477 >0x0D TIF> >0x28 TIF> >0x0D TIF> >0x28 TIF> >0x0D TIF> >0x21 TIF> >0x0D TIF> >0x28 TIF> >0x0D TIF> >0x28 TIF> >0x0D TIF> >0x28 TIF> >0x0D TIF> >0x21 TIF> >0x0D TIF> >0x21 TIF> >0x0D TIF> >0x28 TIF> >0x0D TIF> >0x21 TIF> >0x0D TIF> >0x21 TIF> >0x0D TIF> >0x28 TIF> >0x0D TIF> >0x28 TIF> >0x108 TIF>Found SWD-DP with ID 0x1BA01477 >0x0D TIF> >0x21 TIF> >0x0D TIF> >0x28 TIF> >0x0D TIF> >0x28 TIF> >0x0D TIF> >0x21 TIF> >0x0D TIF> >0x28 TIF>
 >0x0D TIF> >0x21 TIF> >0x0D TIF> >0x21 TIF> >0x0D TIF> >0x21 TIF> >0x0D TIF> >0x21 TIF> >0x0D TIF> >0x28 TIF> >0x0D TIF> >0x28 TIF> >0x0D TIF> >0x21 TIF> >0x0D TIF> >0x28 TIF> >0x0D TIF> >0x28 TIF> >0x0D TIF> >0x28 TIF> >0x0D TIF> >0x21 TIF> >0x0D TIF> >0x21 TIF> >0x0D TIF> >0x28 TIF> >0x0D TIF> >0x21 TIF> >0x0D TIF> >0x21 TIF>Found Cortex-M3 r1p1, Little endian. -- CPU_WriteMem(4 bytes @ 0xE0002000) -- CPU_ReadMem(4 bytes @ 0xE000EDF0) -- CPU_WriteMem(4 bytes @ 0xE000EDF0)
 -- CPU_ReadMem(4 bytes @ 0xE0002000)FPUnit: 6 code (BP) slots and 2 literal slots -- CPU_ReadMem(4 bytes @ 0xE000EDFC) -- CPU_WriteMem(4 bytes @ 0xE000EDFC) -- CPU_ReadMem(4 bytes @ 0xE0001000) -- CPU_WriteMem(4 bytes @ 0xE0001000) -- CPU_ReadMem(4 bytes @ 0xE000ED88) -- CPU_WriteMem(4 bytes @ 0xE000ED88) -- CPU_ReadMem(4 bytes @ 0xE000ED88) -- CPU_WriteMem(4 bytes @ 0xE000ED88) -- CPU_ReadMem(4 bytes @ 0xE00FF010)TPIU fitted. -- CPU_ReadMem(4 bytes @ 0xE00FF014) -- CPU_ReadMem(4 bytes @ 0xE00FF018)
 >0x0D TIF> >0x21 TIF>  returns 0x1BA01477 (0052ms, 0614ms total)
T4F14 000:834 JLINK_GetDLLVersion()  returns 49604 (0000ms, 0614ms total)
T4F14 000:834 JLINK_CORE_GetFound()  returns 0x30000FF (0000ms, 0614ms total)
T4F14 000:834 JLINK_GetDebugInfo(0x100) -- Value=0xE00FF003  returns 0x00 (0000ms, 0614ms total)
T4F14 000:839 JLINK_ReadMem (0xE00FF000, 0x0020 Bytes, ...) -- CPU is running -- CPU_ReadMem(32 bytes @ 0xE00FF000) - Data: 03 F0 F0 FF 03 20 F0 FF 03 30 F0 FF 03 10 F0 FF ...  returns 0x00 (0000ms, 0614ms total)
T4F14 000:839 JLINK_ReadMem (0xE000EFF0, 0x0010 Bytes, ...) -- CPU is running -- CPU_ReadMem(16 bytes @ 0xE000EFF0) - Data: 0D 00 00 00 E0 00 00 00 05 00 00 00 B1 00 00 00  returns 0x00 (0001ms, 0615ms total)
T4F14 000:840 JLINK_ReadMem (0xE000EFD0, 0x0020 Bytes, ...) -- CPU is running -- CPU_ReadMem(32 bytes @ 0xE000EFD0) - Data: 04 00 00 00 00 00 00 00 00 00 00 00 00 00 00 00 ...  returns 0x00 (0001ms, 0616ms total)
T4F14 000:841 JLINK_ReadMem (0xE0001FF0, 0x0010 Bytes, ...) -- CPU is running -- CPU_ReadMem(16 bytes @ 0xE0001FF0) - Data: 0D 00 00 00 E0 00 00 00 05 00 00 00 B1 00 00 00  returns 0x00 (0001ms, 0617ms total)
T4F14 000:842 JLINK_ReadMem (0xE0001FD0, 0x0020 Bytes, ...) -- CPU is running -- CPU_ReadMem(32 bytes @ 0xE0001FD0) - Data: 04 00 00 00 00 00 00 00 00 00 00 00 00 00 00 00 ...  returns 0x00 (0001ms, 0618ms total)
T4F14 000:843 JLINK_ReadMem (0xE0002FF0, 0x0010 Bytes, ...) -- CPU is running -- CPU_ReadMem(16 bytes @ 0xE0002FF0) - Data: 0D 00 00 00 E0 00 00 00 05 00 00 00 B1 00 00 00  returns 0x00 (0000ms, 0618ms total)
T4F14 000:843 JLINK_ReadMem (0xE0002FD0, 0x0020 Bytes, ...) -- CPU is running -- CPU_ReadMem(32 bytes @ 0xE0002FD0) - Data: 04 00 00 00 00 00 00 00 00 00 00 00 00 00 00 00 ...  returns 0x00 (0001ms, 0619ms total)
T4F14 000:844 JLINK_ReadMem (0xE0000FF0, 0x0010 Bytes, ...) -- CPU is running -- CPU_ReadMem(16 bytes @ 0xE0000FF0) - Data: 0D 00 00 00 E0 00 00 00 05 00 00 00 B1 00 00 00  returns 0x00 (0001ms, 0620ms total)
T4F14 000:845 JLINK_ReadMem (0xE0000FD0, 0x0020 Bytes, ...) -- CPU is running -- CPU_ReadMem(32 bytes @ 0xE0000FD0) - Data: 04 00 00 00 00 00 00 00 00 00 00 00 00 00 00 00 ...  returns 0x00 (0001ms, 0621ms total)
T4F14 000:846 JLINK_ReadMem (0xE0040FF0, 0x0010 Bytes, ...) -- CPU is running -- CPU_ReadMem(16 bytes @ 0xE0040FF0) - Data: 0D 00 00 00 90 00 00 00 05 00 00 00 B1 00 00 00  returns 0x00 (0000ms, 0621ms total)
T4F14 000:846 JLINK_ReadMem (0xE0040FD0, 0x0020 Bytes, ...) -- CPU is running -- CPU_ReadMem(32 bytes @ 0xE0040FD0) - Data: 04 00 00 00 00 00 00 00 00 00 00 00 00 00 00 00 ...  returns 0x00 (0001ms, 0622ms total)
T4F14 000:847 JLINK_ReadMemU32(0xE000ED00, 0x0001 Items, ...) -- CPU is running -- CPU_ReadMem(4 bytes @ 0xE000ED00) - Data: 31 C2 1F 41  returns 0x01 (0001ms, 0623ms total)
T4F14 000:848 JLINK_SetResetType(JLINKARM_RESET_TYPE_NORMAL)  returns JLINKARM_RESET_TYPE_NORMAL (0000ms, 0623ms total)
T4F14 000:848 JLINK_Reset() -- CPU is running -- CPU_WriteMem(4 bytes @ 0xE000EDF0) -- CPU is running -- CPU_WriteMem(4 bytes @ 0xE000EDFC) >0x35 TIF> -- CPU is running -- CPU_WriteMem(4 bytes @ 0xE000ED0C) -- CPU is running -- CPU_ReadMem(4 bytes @ 0xE000EDF0) -- CPU is running -- CPU_ReadMem(4 bytes @ 0xE000EDF0) -- CPU is running -- CPU_WriteMem(4 bytes @ 0xE000EDF0) -- CPU is running -- CPU_WriteMem(4 bytes @ 0xE000EDFC) -- CPU is running -- CPU_ReadMem(4 bytes @ 0xE000EDF0)
 -- CPU_WriteMem(4 bytes @ 0xE0002000) -- CPU_ReadMem(4 bytes @ 0xE000EDFC) -- CPU_ReadMem(4 bytes @ 0xE0001000) (0019ms, 0642ms total)
T4F14 000:867 JLINK_Halt()  returns 0x00 (0000ms, 0642ms total)
T4F14 000:867 JLINK_IsHalted()  returns TRUE (0000ms, 0642ms total)
T4F14 000:867 JLINK_ReadMemU32(0xE000EDF0, 0x0001 Items, ...) -- CPU_ReadMem(4 bytes @ 0xE000EDF0) - Data: 03 00 03 00  returns 0x01 (0000ms, 0642ms total)
T4F14 000:867 JLINK_WriteU32(0xE000EDF0, 0xA05F0003) -- CPU_WriteMem(4 bytes @ 0xE000EDF0)  returns 0x00 (0001ms, 0643ms total)
T4F14 000:868 JLINK_WriteU32(0xE000EDFC, 0x01000000) -- CPU_WriteMem(4 bytes @ 0xE000EDFC)  returns 0x00 (0000ms, 0643ms total)
T4F14 000:890 JLINK_GetHWStatus(...)  returns 0x00 (0000ms, 0643ms total)
T4F14 000:905 JLINK_GetNumBPUnits(Type = 0xFFFFFF00)  returns 0x06 (0000ms, 0643ms total)
T4F14 000:905 JLINK_GetNumBPUnits(Type = 0xF0)  returns 0x2000 (0000ms, 0643ms total)
T4F14 000:905 JLINK_GetNumWPUnits()  returns 0x04 (0000ms, 0643ms total)
T4F14 000:920 JLINK_GetSpeed()  returns 0xFA0 (0000ms, 0643ms total)
T4F14 000:935 JLINK_ReadMemU32(0xE000E004, 0x0001 Items, ...) -- CPU_ReadMem(4 bytes @ 0xE000E004) - Data: 01 00 00 00  returns 0x01 (0000ms, 0643ms total)
T4F14 000:935 JLINK_ReadMemU32(0xE000E004, 0x0001 Items, ...) -- CPU_ReadMem(4 bytes @ 0xE000E004) - Data: 01 00 00 00  returns 0x01 (0001ms, 0644ms total)
T4F14 000:936 JLINK_WriteMem(0xE0001000, 0x001C Bytes, ...) - Data: 01 00 00 00 00 00 00 00 00 00 00 00 00 00 00 00 ... -- CPU_WriteMem(28 bytes @ 0xE0001000)  returns 0x1C (0002ms, 0646ms total)
T4F14 000:938 JLINK_ReadMem (0xE0001000, 0x001C Bytes, ...) -- CPU_ReadMem(28 bytes @ 0xE0001000) - Data: 01 00 00 40 00 00 00 00 00 00 00 00 00 00 00 00 ...  returns 0x00 (0000ms, 0646ms total)
T4F14 000:938 JLINK_Halt()  returns 0x00 (0000ms, 0646ms total)
T4F14 000:938 JLINK_IsHalted()  returns TRUE (0000ms, 0646ms total)
T4F14 000:944 JLINK_WriteMem(0x20000000, 0x0164 Bytes, ...) - Data: 00 BE 0A E0 0D 78 2D 06 68 40 08 24 40 00 00 D3 ... -- CPU_WriteMem(356 bytes @ 0x20000000)  returns 0x164 (0005ms, 0651ms total)
T4F14 000:949 JLINK_WriteReg(R0, 0x08000000)  returns 0x00 (0000ms, 0651ms total)
T4F14 000:949 JLINK_WriteReg(R1, 0x00B71B00)  returns 0x00 (0000ms, 0651ms total)
T4F14 000:949 JLINK_WriteReg(R2, 0x00000001)  returns 0x00 (0000ms, 0651ms total)
T4F14 000:949 JLINK_WriteReg(R3, 0x00000000)  returns 0x00 (0000ms, 0651ms total)
T4F14 000:949 JLINK_WriteReg(R4, 0x00000000)  returns 0x00 (0000ms, 0651ms total)
T4F14 000:949 JLINK_WriteReg(R5, 0x00000000)  returns 0x00 (0000ms, 0651ms total)
T4F14 000:949 JLINK_WriteReg(R6, 0x00000000)  returns 0x00 (0000ms, 0651ms total)
T4F14 000:949 JLINK_WriteReg(R7, 0x00000000)  returns 0x00 (0001ms, 0652ms total)
T4F14 000:950 JLINK_WriteReg(R8, 0x00000000)  returns 0x00 (0000ms, 0652ms total)
T4F14 000:950 JLINK_WriteReg(R9, 0x20000160)  returns 0x00 (0000ms, 0652ms total)
T4F14 000:950 JLINK_WriteReg(R10, 0x00000000)  returns 0x00 (0000ms, 0652ms total)
T4F14 000:950 JLINK_WriteReg(R11, 0x00000000)  returns 0x00 (0000ms, 0652ms total)
T4F14 000:950 JLINK_WriteReg(R12, 0x00000000)  returns 0x00 (0000ms, 0652ms total)
T4F14 000:950 JLINK_WriteReg(R13 (SP), 0x20001000)  returns 0x00 (0000ms, 0652ms total)
T4F14 000:950 JLINK_WriteReg(R14, 0x20000001)  returns 0x00 (0000ms, 0652ms total)
T4F14 000:950 JLINK_WriteReg(R15 (PC), 0x20000038)  returns 0x00 (0000ms, 0652ms total)
T4F14 000:950 JLINK_WriteReg(XPSR, 0x01000000)  returns 0x00 (0000ms, 0652ms total)
T4F14 000:950 JLINK_WriteReg(MSP, 0x20001000)  returns 0x00 (0000ms, 0652ms total)
T4F14 000:950 JLINK_WriteReg(PSP, 0x20001000)  returns 0x00 (0000ms, 0652ms total)
T4F14 000:950 JLINK_WriteReg(CFBP, 0x00000000)  returns 0x00 (0000ms, 0652ms total)
T4F14 000:950 JLINK_SetBPEx(Addr = 0x20000000, Type = 0xFFFFFFF2) -- CPU_ReadMem(2 bytes @ 0x20000000)  returns 0x00000001 (0001ms, 0653ms total)
T4F14 000:951 JLINK_Go() -- CPU_WriteMem(2 bytes @ 0x20000000) -- CPU_WriteMem(4 bytes @ 0xE0002008) -- CPU_WriteMem(4 bytes @ 0xE000200C) -- CPU_WriteMem(4 bytes @ 0xE0002010) -- CPU_WriteMem(4 bytes @ 0xE0002014) -- CPU_WriteMem(4 bytes @ 0xE0002018) -- CPU_WriteMem(4 bytes @ 0xE000201C) -- CPU_WriteMem(4 bytes @ 0xE0001004) (0006ms, 0659ms total)
T4F14 000:957 JLINK_IsHalted() -- CPU_ReadMem(2 bytes @ 0x20000000)  returns TRUE (0005ms, 0664ms total)
T4F14 000:962 JLINK_ReadReg(R15 (PC))  returns 0x20000000 (0000ms, 0659ms total)
T4F14 000:962 JLINK_ClrBPEx(BPHandle = 0x00000001)  returns 0x00 (0000ms, 0659ms total)
T4F14 000:962 JLINK_ReadReg(R0)  returns 0x00000000 (0000ms, 0659ms total)
T4F14 000:962 JLINK_WriteReg(R0, 0x08000000)  returns 0x00 (0000ms, 0659ms total)
T4F14 000:962 JLINK_WriteReg(R1, 0x00B71B00)  returns 0x00 (0000ms, 0659ms total)
T4F14 000:962 JLINK_WriteReg(R2, 0x00000001)  returns 0x00 (0000ms, 0659ms total)
T4F14 000:962 JLINK_WriteReg(R3, 0x00000000)  returns 0x00 (0000ms, 0659ms total)
T4F14 000:962 JLINK_WriteReg(R4, 0x00000000)  returns 0x00 (0000ms, 0659ms total)
T4F14 000:962 JLINK_WriteReg(R5, 0x00000000)  returns 0x00 (0000ms, 0659ms total)
T4F14 000:962 JLINK_WriteReg(R6, 0x00000000)  returns 0x00 (0000ms, 0659ms total)
T4F14 000:962 JLINK_WriteReg(R7, 0x00000000)  returns 0x00 (0000ms, 0659ms total)
T4F14 000:963 JLINK_WriteReg(R8, 0x00000000)  returns 0x00 (0000ms, 0660ms total)
T4F14 000:963 JLINK_WriteReg(R9, 0x20000160)  returns 0x00 (0000ms, 0660ms total)
T4F14 000:963 JLINK_WriteReg(R10, 0x00000000)  returns 0x00 (0000ms, 0660ms total)
T4F14 000:963 JLINK_WriteReg(R11, 0x00000000)  returns 0x00 (0000ms, 0660ms total)
T4F14 000:963 JLINK_WriteReg(R12, 0x00000000)  returns 0x00 (0000ms, 0660ms total)
T4F14 000:963 JLINK_WriteReg(R13 (SP), 0x20001000)  returns 0x00 (0000ms, 0660ms total)
T4F14 000:963 JLINK_WriteReg(R14, 0x20000001)  returns 0x00 (0000ms, 0660ms total)
T4F14 000:963 JLINK_WriteReg(R15 (PC), 0x2000007C)  returns 0x00 (0000ms, 0660ms total)
T4F14 000:963 JLINK_WriteReg(XPSR, 0x01000000)  returns 0x00 (0000ms, 0660ms total)
T4F14 000:963 JLINK_WriteReg(MSP, 0x20001000)  returns 0x00 (0000ms, 0660ms total)
T4F14 000:963 JLINK_WriteReg(PSP, 0x20001000)  returns 0x00 (0000ms, 0660ms total)
T4F14 000:963 JLINK_WriteReg(CFBP, 0x00000000)  returns 0x00 (0000ms, 0660ms total)
T4F14 000:963 JLINK_SetBPEx(Addr = 0x20000000, Type = 0xFFFFFFF2)  returns 0x00000002 (0000ms, 0660ms total)
T4F14 000:963 JLINK_Go() (0002ms, 0662ms total)
T4F14 000:965 JLINK_IsHalted()  returns FALSE (0001ms, 0663ms total)
T4F14 001:103 JLINK_IsHalted() -- CPU_ReadMem(2 bytes @ 0x20000000)  returns TRUE (0003ms, 0665ms total)
T4F14 001:106 JLINK_ReadReg(R15 (PC))  returns 0x20000000 (0000ms, 0662ms total)
T4F14 001:106 JLINK_ClrBPEx(BPHandle = 0x00000002)  returns 0x00 (0000ms, 0662ms total)
T4F14 001:106 JLINK_ReadReg(R0)  returns 0x00000000 (0000ms, 0662ms total)
T4F14 001:159 JLINK_WriteReg(R0, 0x00000001)  returns 0x00 (0000ms, 0662ms total)
T4F14 001:159 JLINK_WriteReg(R1, 0x00B71B00)  returns 0x00 (0000ms, 0662ms total)
T4F14 001:159 JLINK_WriteReg(R2, 0x00000001)  returns 0x00 (0000ms, 0662ms total)
T4F14 001:159 JLINK_WriteReg(R3, 0x00000000)  returns 0x00 (0000ms, 0662ms total)
T4F14 001:159 JLINK_WriteReg(R4, 0x00000000)  returns 0x00 (0000ms, 0662ms total)
T4F14 001:159 JLINK_WriteReg(R5, 0x00000000)  returns 0x00 (0000ms, 0662ms total)
T4F14 001:159 JLINK_WriteReg(R6, 0x00000000)  returns 0x00 (0001ms, 0663ms total)
T4F14 001:160 JLINK_WriteReg(R7, 0x00000000)  returns 0x00 (0000ms, 0663ms total)
T4F14 001:160 JLINK_WriteReg(R8, 0x00000000)  returns 0x00 (0000ms, 0663ms total)
T4F14 001:160 JLINK_WriteReg(R9, 0x20000160)  returns 0x00 (0000ms, 0663ms total)
T4F14 001:160 JLINK_WriteReg(R10, 0x00000000)  returns 0x00 (0000ms, 0663ms total)
T4F14 001:160 JLINK_WriteReg(R11, 0x00000000)  returns 0x00 (0000ms, 0663ms total)
T4F14 001:160 JLINK_WriteReg(R12, 0x00000000)  returns 0x00 (0000ms, 0663ms total)
T4F14 001:160 JLINK_WriteReg(R13 (SP), 0x20001000)  returns 0x00 (0000ms, 0663ms total)
T4F14 001:160 JLINK_WriteReg(R14, 0x20000001)  returns 0x00 (0000ms, 0663ms total)
T4F14 001:160 JLINK_WriteReg(R15 (PC), 0x2000006A)  returns 0x00 (0000ms, 0663ms total)
T4F14 001:160 JLINK_WriteReg(XPSR, 0x01000000)  returns 0x00 (0000ms, 0663ms total)
T4F14 001:160 JLINK_WriteReg(MSP, 0x20001000)  returns 0x00 (0000ms, 0663ms total)
T4F14 001:160 JLINK_WriteReg(PSP, 0x20001000)  returns 0x00 (0000ms, 0663ms total)
T4F14 001:160 JLINK_WriteReg(CFBP, 0x00000000)  returns 0x00 (0000ms, 0663ms total)
T4F14 001:160 JLINK_SetBPEx(Addr = 0x20000000, Type = 0xFFFFFFF2)  returns 0x00000003 (0000ms, 0663ms total)
T4F14 001:160 JLINK_Go() (0002ms, 0665ms total)
T4F14 001:162 JLINK_IsHalted() -- CPU_ReadMem(2 bytes @ 0x20000000)  returns TRUE (0004ms, 0669ms total)
T4F14 001:166 JLINK_ReadReg(R15 (PC))  returns 0x20000000 (0000ms, 0665ms total)
T4F14 001:166 JLINK_ClrBPEx(BPHandle = 0x00000003)  returns 0x00 (0000ms, 0665ms total)
T4F14 001:166 JLINK_ReadReg(R0)  returns 0x00000000 (0000ms, 0665ms total)
T4F14 001:175 JLINK_WriteMem(0x20000000, 0x0164 Bytes, ...) - Data: 00 BE 0A E0 0D 78 2D 06 68 40 08 24 40 00 00 D3 ... -- CPU_WriteMem(356 bytes @ 0x20000000)  returns 0x164 (0006ms, 0671ms total)
T4F14 001:181 JLINK_WriteReg(R0, 0x08000000)  returns 0x00 (0000ms, 0671ms total)
T4F14 001:181 JLINK_WriteReg(R1, 0x00B71B00)  returns 0x00 (0000ms, 0671ms total)
T4F14 001:181 JLINK_WriteReg(R2, 0x00000002)  returns 0x00 (0000ms, 0671ms total)
T4F14 001:181 JLINK_WriteReg(R3, 0x00000000)  returns 0x00 (0000ms, 0671ms total)
T4F14 001:181 JLINK_WriteReg(R4, 0x00000000)  returns 0x00 (0000ms, 0671ms total)
T4F14 001:181 JLINK_WriteReg(R5, 0x00000000)  returns 0x00 (0000ms, 0671ms total)
T4F14 001:181 JLINK_WriteReg(R6, 0x00000000)  returns 0x00 (0000ms, 0671ms total)
T4F14 001:181 JLINK_WriteReg(R7, 0x00000000)  returns 0x00 (0000ms, 0671ms total)
T4F14 001:181 JLINK_WriteReg(R8, 0x00000000)  returns 0x00 (0000ms, 0671ms total)
T4F14 001:181 JLINK_WriteReg(R9, 0x20000160)  returns 0x00 (0000ms, 0671ms total)
T4F14 001:181 JLINK_WriteReg(R10, 0x00000000)  returns 0x00 (0000ms, 0671ms total)
T4F14 001:181 JLINK_WriteReg(R11, 0x00000000)  returns 0x00 (0000ms, 0671ms total)
T4F14 001:182 JLINK_WriteReg(R12, 0x00000000)  returns 0x00 (0000ms, 0671ms total)
T4F14 001:182 JLINK_WriteReg(R13 (SP), 0x20001000)  returns 0x00 (0000ms, 0671ms total)
T4F14 001:182 JLINK_WriteReg(R14, 0x20000001)  returns 0x00 (0000ms, 0671ms total)
T4F14 001:182 JLINK_WriteReg(R15 (PC), 0x20000038)  returns 0x00 (0000ms, 0671ms total)
T4F14 001:182 JLINK_WriteReg(XPSR, 0x01000000)  returns 0x00 (0000ms, 0671ms total)
T4F14 001:182 JLINK_WriteReg(MSP, 0x20001000)  returns 0x00 (0000ms, 0671ms total)
T4F14 001:182 JLINK_WriteReg(PSP, 0x20001000)  returns 0x00 (0000ms, 0671ms total)
T4F14 001:182 JLINK_WriteReg(CFBP, 0x00000000)  returns 0x00 (0000ms, 0671ms total)
T4F14 001:182 JLINK_SetBPEx(Addr = 0x20000000, Type = 0xFFFFFFF2) -- CPU_ReadMem(2 bytes @ 0x20000000)  returns 0x00000004 (0001ms, 0672ms total)
T4F14 001:183 JLINK_Go() -- CPU_WriteMem(2 bytes @ 0x20000000) (0003ms, 0675ms total)
T4F14 001:186 JLINK_IsHalted() -- CPU_ReadMem(2 bytes @ 0x20000000)  returns TRUE (0004ms, 0679ms total)
T4F14 001:190 JLINK_ReadReg(R15 (PC))  returns 0x20000000 (0000ms, 0675ms total)
T4F14 001:190 JLINK_ClrBPEx(BPHandle = 0x00000004)  returns 0x00 (0000ms, 0675ms total)
T4F14 001:190 JLINK_ReadReg(R0)  returns 0x00000000 (0000ms, 0675ms total)
T4F14 001:192 JLINK_WriteMem(0x20000164, 0x0400 Bytes, ...) - Data: F0 0A 00 20 D5 01 00 08 D9 01 00 08 DB 01 00 08 ... -- CPU_WriteMem(1024 bytes @ 0x20000164)  returns 0x400 (0012ms, 0687ms total)
T4F14 001:204 JLINK_WriteReg(R0, 0x08000000)  returns 0x00 (0000ms, 0687ms total)
T4F14 001:204 JLINK_WriteReg(R1, 0x00000400)  returns 0x00 (0000ms, 0687ms total)
T4F14 001:204 JLINK_WriteReg(R2, 0x20000164)  returns 0x00 (0000ms, 0687ms total)
T4F14 001:205 JLINK_WriteReg(R3, 0x00000000)  returns 0x00 (0000ms, 0688ms total)
T4F14 001:205 JLINK_WriteReg(R4, 0x00000000)  returns 0x00 (0000ms, 0688ms total)
T4F14 001:205 JLINK_WriteReg(R5, 0x00000000)  returns 0x00 (0000ms, 0688ms total)
T4F14 001:205 JLINK_WriteReg(R6, 0x00000000)  returns 0x00 (0000ms, 0688ms total)
T4F14 001:205 JLINK_WriteReg(R7, 0x00000000)  returns 0x00 (0000ms, 0688ms total)
T4F14 001:205 JLINK_WriteReg(R8, 0x00000000)  returns 0x00 (0000ms, 0688ms total)
T4F14 001:205 JLINK_WriteReg(R9, 0x20000160)  returns 0x00 (0000ms, 0688ms total)
T4F14 001:205 JLINK_WriteReg(R10, 0x00000000)  returns 0x00 (0000ms, 0688ms total)
T4F14 001:205 JLINK_WriteReg(R11, 0x00000000)  returns 0x00 (0000ms, 0688ms total)
T4F14 001:205 JLINK_WriteReg(R12, 0x00000000)  returns 0x00 (0000ms, 0688ms total)
T4F14 001:205 JLINK_WriteReg(R13 (SP), 0x20001000)  returns 0x00 (0000ms, 0688ms total)
T4F14 001:205 JLINK_WriteReg(R14, 0x20000001)  returns 0x00 (0000ms, 0688ms total)
T4F14 001:205 JLINK_WriteReg(R15 (PC), 0x200000F4)  returns 0x00 (0001ms, 0689ms total)
T4F14 001:206 JLINK_WriteReg(XPSR, 0x01000000)  returns 0x00 (0000ms, 0689ms total)
T4F14 001:206 JLINK_WriteReg(MSP, 0x20001000)  returns 0x00 (0000ms, 0689ms total)
T4F14 001:206 JLINK_WriteReg(PSP, 0x20001000)  returns 0x00 (0000ms, 0689ms total)
T4F14 001:206 JLINK_WriteReg(CFBP, 0x00000000)  returns 0x00 (0000ms, 0689ms total)
T4F14 001:206 JLINK_SetBPEx(Addr = 0x20000000, Type = 0xFFFFFFF2)  returns 0x00000005 (0000ms, 0689ms total)
T4F14 001:206 JLINK_Go() (0002ms, 0691ms total)
T4F14 001:208 JLINK_IsHalted()  returns FALSE (0002ms, 0693ms total)
T4F14 001:299 JLINK_IsHalted() -- CPU_ReadMem(2 bytes @ 0x20000000)  returns TRUE (0004ms, 0695ms total)
T4F14 001:303 JLINK_ReadReg(R15 (PC))  returns 0x20000000 (0000ms, 0691ms total)
T4F14 001:303 JLINK_ClrBPEx(BPHandle = 0x00000005)  returns 0x00 (0000ms, 0691ms total)
T4F14 001:303 JLINK_ReadReg(R0)  returns 0x00000000 (0000ms, 0691ms total)
T4F14 001:304 JLINK_WriteMem(0x20000164, 0x0400 Bytes, ...) - Data: B3 43 71 4E 46 F8 20 30 33 46 53 F8 20 30 04 FA ... -- CPU_WriteMem(1024 bytes @ 0x20000164)  returns 0x400 (0013ms, 0704ms total)
T4F14 001:317 JLINK_WriteReg(R0, 0x08000400)  returns 0x00 (0000ms, 0704ms total)
T4F14 001:317 JLINK_WriteReg(R1, 0x00000400)  returns 0x00 (0000ms, 0704ms total)
T4F14 001:317 JLINK_WriteReg(R2, 0x20000164)  returns 0x00 (0000ms, 0704ms total)
T4F14 001:317 JLINK_WriteReg(R3, 0x00000000)  returns 0x00 (0000ms, 0704ms total)
T4F14 001:317 JLINK_WriteReg(R4, 0x00000000)  returns 0x00 (0000ms, 0704ms total)
T4F14 001:317 JLINK_WriteReg(R5, 0x00000000)  returns 0x00 (0000ms, 0704ms total)
T4F14 001:317 JLINK_WriteReg(R6, 0x00000000)  returns 0x00 (0000ms, 0704ms total)
T4F14 001:317 JLINK_WriteReg(R7, 0x00000000)  returns 0x00 (0000ms, 0704ms total)
T4F14 001:317 JLINK_WriteReg(R8, 0x00000000)  returns 0x00 (0000ms, 0704ms total)
T4F14 001:317 JLINK_WriteReg(R9, 0x20000160)  returns 0x00 (0000ms, 0704ms total)
T4F14 001:318 JLINK_WriteReg(R10, 0x00000000)  returns 0x00 (0000ms, 0705ms total)
T4F14 001:318 JLINK_WriteReg(R11, 0x00000000)  returns 0x00 (0000ms, 0705ms total)
T4F14 001:318 JLINK_WriteReg(R12, 0x00000000)  returns 0x00 (0000ms, 0705ms total)
T4F14 001:318 JLINK_WriteReg(R13 (SP), 0x20001000)  returns 0x00 (0000ms, 0705ms total)
T4F14 001:318 JLINK_WriteReg(R14, 0x20000001)  returns 0x00 (0000ms, 0705ms total)
T4F14 001:318 JLINK_WriteReg(R15 (PC), 0x200000F4)  returns 0x00 (0000ms, 0705ms total)
T4F14 001:318 JLINK_WriteReg(XPSR, 0x01000000)  returns 0x00 (0000ms, 0705ms total)
T4F14 001:318 JLINK_WriteReg(MSP, 0x20001000)  returns 0x00 (0000ms, 0705ms total)
T4F14 001:318 JLINK_WriteReg(PSP, 0x20001000)  returns 0x00 (0000ms, 0705ms total)
T4F14 001:318 JLINK_WriteReg(CFBP, 0x00000000)  returns 0x00 (0000ms, 0705ms total)
T4F14 001:318 JLINK_SetBPEx(Addr = 0x20000000, Type = 0xFFFFFFF2)  returns 0x00000006 (0000ms, 0705ms total)
T4F14 001:318 JLINK_Go() (0003ms, 0708ms total)
T4F14 001:321 JLINK_IsHalted()  returns FALSE (0000ms, 0708ms total)
T4F14 001:337 JLINK_IsHalted()  returns FALSE (0001ms, 0709ms total)
T4F14 001:399 JLINK_IsHalted() -- CPU_ReadMem(2 bytes @ 0x20000000)  returns TRUE (0004ms, 0712ms total)
T4F14 001:403 JLINK_ReadReg(R15 (PC))  returns 0x20000000 (0000ms, 0708ms total)
T4F14 001:403 JLINK_ClrBPEx(BPHandle = 0x00000006)  returns 0x00 (0000ms, 0708ms total)
T4F14 001:403 JLINK_ReadReg(R0)  returns 0x00000000 (0000ms, 0708ms total)
T4F14 001:404 JLINK_WriteMem(0x20000164, 0x0400 Bytes, ...) - Data: 3C 49 08 80 4B E0 3B 48 00 88 40 F4 00 40 39 49 ... -- CPU_WriteMem(1024 bytes @ 0x20000164)  returns 0x400 (0012ms, 0720ms total)
T4F14 001:416 JLINK_WriteReg(R0, 0x08000800)  returns 0x00 (0001ms, 0721ms total)
T4F14 001:417 JLINK_WriteReg(R1, 0x00000400)  returns 0x00 (0000ms, 0721ms total)
T4F14 001:417 JLINK_WriteReg(R2, 0x20000164)  returns 0x00 (0000ms, 0721ms total)
T4F14 001:417 JLINK_WriteReg(R3, 0x00000000)  returns 0x00 (0000ms, 0721ms total)
T4F14 001:417 JLINK_WriteReg(R4, 0x00000000)  returns 0x00 (0000ms, 0721ms total)
T4F14 001:417 JLINK_WriteReg(R5, 0x00000000)  returns 0x00 (0000ms, 0721ms total)
T4F14 001:417 JLINK_WriteReg(R6, 0x00000000)  returns 0x00 (0000ms, 0721ms total)
T4F14 001:417 JLINK_WriteReg(R7, 0x00000000)  returns 0x00 (0000ms, 0721ms total)
T4F14 001:417 JLINK_WriteReg(R8, 0x00000000)  returns 0x00 (0000ms, 0721ms total)
T4F14 001:417 JLINK_WriteReg(R9, 0x20000160)  returns 0x00 (0000ms, 0721ms total)
T4F14 001:417 JLINK_WriteReg(R10, 0x00000000)  returns 0x00 (0000ms, 0721ms total)
T4F14 001:417 JLINK_WriteReg(R11, 0x00000000)  returns 0x00 (0000ms, 0721ms total)
T4F14 001:417 JLINK_WriteReg(R12, 0x00000000)  returns 0x00 (0001ms, 0722ms total)
T4F14 001:418 JLINK_WriteReg(R13 (SP), 0x20001000)  returns 0x00 (0000ms, 0722ms total)
T4F14 001:418 JLINK_WriteReg(R14, 0x20000001)  returns 0x00 (0000ms, 0722ms total)
T4F14 001:418 JLINK_WriteReg(R15 (PC), 0x200000F4)  returns 0x00 (0000ms, 0722ms total)
T4F14 001:418 JLINK_WriteReg(XPSR, 0x01000000)  returns 0x00 (0000ms, 0722ms total)
T4F14 001:418 JLINK_WriteReg(MSP, 0x20001000)  returns 0x00 (0000ms, 0722ms total)
T4F14 001:418 JLINK_WriteReg(PSP, 0x20001000)  returns 0x00 (0000ms, 0722ms total)
T4F14 001:418 JLINK_WriteReg(CFBP, 0x00000000)  returns 0x00 (0000ms, 0722ms total)
T4F14 001:418 JLINK_SetBPEx(Addr = 0x20000000, Type = 0xFFFFFFF2)  returns 0x00000007 (0000ms, 0722ms total)
T4F14 001:418 JLINK_Go() (0002ms, 0724ms total)
T4F14 001:420 JLINK_IsHalted()  returns FALSE (0001ms, 0725ms total)
T4F14 001:426 JLINK_IsHalted()  returns FALSE (0000ms, 0724ms total)
T4F14 001:428 JLINK_IsHalted()  returns FALSE (0000ms, 0724ms total)
T4F14 001:431 JLINK_IsHalted()  returns FALSE (0000ms, 0724ms total)
T4F14 001:433 JLINK_IsHalted()  returns FALSE (0000ms, 0724ms total)
T4F14 001:436 JLINK_IsHalted()  returns FALSE (0000ms, 0724ms total)
T4F14 001:438 JLINK_IsHalted()  returns FALSE (0000ms, 0724ms total)
T4F14 001:440 JLINK_IsHalted()  returns FALSE (0000ms, 0724ms total)
T4F14 001:442 JLINK_IsHalted()  returns FALSE (0001ms, 0725ms total)
T4F14 001:445 JLINK_IsHalted()  returns FALSE (0000ms, 0724ms total)
T4F14 001:447 JLINK_IsHalted()  returns FALSE (0000ms, 0724ms total)
T4F14 001:508 JLINK_IsHalted() -- CPU_ReadMem(2 bytes @ 0x20000000)  returns TRUE (0004ms, 0728ms total)
T4F14 001:512 JLINK_ReadReg(R15 (PC))  returns 0x20000000 (0000ms, 0724ms total)
T4F14 001:513 JLINK_ClrBPEx(BPHandle = 0x00000007)  returns 0x00 (0000ms, 0725ms total)
T4F14 001:513 JLINK_ReadReg(R0)  returns 0x00000000 (0000ms, 0725ms total)
T4F14 001:516 JLINK_WriteMem(0x20000164, 0x0400 Bytes, ...) - Data: 4F F0 00 0A 00 24 35 E0 30 1B 40 1E C1 B2 0A 20 ... -- CPU_WriteMem(1024 bytes @ 0x20000164)  returns 0x400 (0013ms, 0738ms total)
T4F14 001:529 JLINK_WriteReg(R0, 0x08000C00)  returns 0x00 (0000ms, 0738ms total)
T4F14 001:529 JLINK_WriteReg(R1, 0x00000400)  returns 0x00 (0000ms, 0738ms total)
T4F14 001:529 JLINK_WriteReg(R2, 0x20000164)  returns 0x00 (0000ms, 0738ms total)
T4F14 001:529 JLINK_WriteReg(R3, 0x00000000)  returns 0x00 (0001ms, 0739ms total)
T4F14 001:530 JLINK_WriteReg(R4, 0x00000000)  returns 0x00 (0000ms, 0739ms total)
T4F14 001:530 JLINK_WriteReg(R5, 0x00000000)  returns 0x00 (0000ms, 0739ms total)
T4F14 001:530 JLINK_WriteReg(R6, 0x00000000)  returns 0x00 (0000ms, 0739ms total)
T4F14 001:530 JLINK_WriteReg(R7, 0x00000000)  returns 0x00 (0000ms, 0739ms total)
T4F14 001:530 JLINK_WriteReg(R8, 0x00000000)  returns 0x00 (0000ms, 0739ms total)
T4F14 001:530 JLINK_WriteReg(R9, 0x20000160)  returns 0x00 (0000ms, 0739ms total)
T4F14 001:530 JLINK_WriteReg(R10, 0x00000000)  returns 0x00 (0000ms, 0739ms total)
T4F14 001:530 JLINK_WriteReg(R11, 0x00000000)  returns 0x00 (0001ms, 0740ms total)
T4F14 001:531 JLINK_WriteReg(R12, 0x00000000)  returns 0x00 (0000ms, 0740ms total)
T4F14 001:531 JLINK_WriteReg(R13 (SP), 0x20001000)  returns 0x00 (0000ms, 0740ms total)
T4F14 001:531 JLINK_WriteReg(R14, 0x20000001)  returns 0x00 (0000ms, 0740ms total)
T4F14 001:531 JLINK_WriteReg(R15 (PC), 0x200000F4)  returns 0x00 (0000ms, 0740ms total)
T4F14 001:531 JLINK_WriteReg(XPSR, 0x01000000)  returns 0x00 (0000ms, 0740ms total)
T4F14 001:531 JLINK_WriteReg(MSP, 0x20001000)  returns 0x00 (0000ms, 0740ms total)
T4F14 001:531 JLINK_WriteReg(PSP, 0x20001000)  returns 0x00 (0000ms, 0740ms total)
T4F14 001:532 JLINK_WriteReg(CFBP, 0x00000000)  returns 0x00 (0000ms, 0741ms total)
T4F14 001:532 JLINK_SetBPEx(Addr = 0x20000000, Type = 0xFFFFFFF2)  returns 0x00000008 (0000ms, 0741ms total)
T4F14 001:532 JLINK_Go() (0002ms, 0743ms total)
T4F14 001:534 JLINK_IsHalted()  returns FALSE (0001ms, 0744ms total)
T4F14 001:537 JLINK_IsHalted()  returns FALSE (0001ms, 0744ms total)
T4F14 001:540 JLINK_IsHalted()  returns FALSE (0000ms, 0743ms total)
T4F14 001:544 JLINK_IsHalted()  returns FALSE (0000ms, 0743ms total)
T4F14 001:546 JLINK_IsHalted()  returns FALSE (0001ms, 0744ms total)
T4F14 001:549 JLINK_IsHalted()  returns FALSE (0001ms, 0744ms total)
T4F14 001:552 JLINK_IsHalted()  returns FALSE (0001ms, 0744ms total)
T4F14 001:555 JLINK_IsHalted()  returns FALSE (0001ms, 0744ms total)
T4F14 001:558 JLINK_IsHalted()  returns FALSE (0000ms, 0743ms total)
T4F14 001:560 JLINK_IsHalted()  returns FALSE (0001ms, 0744ms total)
T4F14 001:627 JLINK_IsHalted() -- CPU_ReadMem(2 bytes @ 0x20000000)  returns TRUE (0004ms, 0747ms total)
T4F14 001:631 JLINK_ReadReg(R15 (PC))  returns 0x20000000 (0001ms, 0744ms total)
T4F14 001:632 JLINK_ClrBPEx(BPHandle = 0x00000008)  returns 0x00 (0000ms, 0744ms total)
T4F14 001:632 JLINK_ReadReg(R0)  returns 0x00000000 (0000ms, 0744ms total)
T4F14 001:635 JLINK_WriteMem(0x20000164, 0x0400 Bytes, ...) - Data: C0 68 40 F4 00 70 C8 60 08 46 C0 68 20 F4 00 70 ... -- CPU_WriteMem(1024 bytes @ 0x20000164)  returns 0x400 (0013ms, 0757ms total)
T4F14 001:648 JLINK_WriteReg(R0, 0x08001000)  returns 0x00 (0000ms, 0757ms total)
T4F14 001:648 JLINK_WriteReg(R1, 0x00000400)  returns 0x00 (0000ms, 0757ms total)
T4F14 001:648 JLINK_WriteReg(R2, 0x20000164)  returns 0x00 (0000ms, 0757ms total)
T4F14 001:648 JLINK_WriteReg(R3, 0x00000000)  returns 0x00 (0000ms, 0757ms total)
T4F14 001:648 JLINK_WriteReg(R4, 0x00000000)  returns 0x00 (0000ms, 0757ms total)
T4F14 001:648 JLINK_WriteReg(R5, 0x00000000)  returns 0x00 (0000ms, 0757ms total)
T4F14 001:648 JLINK_WriteReg(R6, 0x00000000)  returns 0x00 (0000ms, 0757ms total)
T4F14 001:648 JLINK_WriteReg(R7, 0x00000000)  returns 0x00 (0000ms, 0757ms total)
T4F14 001:649 JLINK_WriteReg(R8, 0x00000000)  returns 0x00 (0000ms, 0758ms total)
T4F14 001:649 JLINK_WriteReg(R9, 0x20000160)  returns 0x00 (0000ms, 0758ms total)
T4F14 001:649 JLINK_WriteReg(R10, 0x00000000)  returns 0x00 (0000ms, 0758ms total)
T4F14 001:649 JLINK_WriteReg(R11, 0x00000000)  returns 0x00 (0000ms, 0758ms total)
T4F14 001:649 JLINK_WriteReg(R12, 0x00000000)  returns 0x00 (0000ms, 0758ms total)
T4F14 001:649 JLINK_WriteReg(R13 (SP), 0x20001000)  returns 0x00 (0000ms, 0758ms total)
T4F14 001:649 JLINK_WriteReg(R14, 0x20000001)  returns 0x00 (0000ms, 0758ms total)
T4F14 001:649 JLINK_WriteReg(R15 (PC), 0x200000F4)  returns 0x00 (0001ms, 0759ms total)
T4F14 001:650 JLINK_WriteReg(XPSR, 0x01000000)  returns 0x00 (0000ms, 0759ms total)
T4F14 001:650 JLINK_WriteReg(MSP, 0x20001000)  returns 0x00 (0000ms, 0759ms total)
T4F14 001:650 JLINK_WriteReg(PSP, 0x20001000)  returns 0x00 (0000ms, 0759ms total)
T4F14 001:650 JLINK_WriteReg(CFBP, 0x00000000)  returns 0x00 (0000ms, 0759ms total)
T4F14 001:650 JLINK_SetBPEx(Addr = 0x20000000, Type = 0xFFFFFFF2)  returns 0x00000009 (0000ms, 0759ms total)
T4F14 001:650 JLINK_Go() (0003ms, 0762ms total)
T4F14 001:653 JLINK_IsHalted()  returns FALSE (0001ms, 0763ms total)
T4F14 001:665 JLINK_IsHalted()  returns FALSE (0001ms, 0763ms total)
T4F14 001:746 JLINK_IsHalted() -- CPU_ReadMem(2 bytes @ 0x20000000)  returns TRUE (0005ms, 0767ms total)
T4F14 001:751 JLINK_ReadReg(R15 (PC))  returns 0x20000000 (0000ms, 0762ms total)
T4F14 001:751 JLINK_ClrBPEx(BPHandle = 0x00000009)  returns 0x00 (0000ms, 0762ms total)
T4F14 001:751 JLINK_ReadReg(R0)  returns 0x00000000 (0000ms, 0762ms total)
T4F14 001:753 JLINK_WriteMem(0x20000164, 0x0400 Bytes, ...) - Data: 26 49 08 39 08 80 08 46 00 88 08 80 23 48 20 38 ... -- CPU_WriteMem(1024 bytes @ 0x20000164)  returns 0x400 (0013ms, 0775ms total)
T4F14 001:766 JLINK_WriteReg(R0, 0x08001400)  returns 0x00 (0000ms, 0775ms total)
T4F14 001:766 JLINK_WriteReg(R1, 0x00000400)  returns 0x00 (0000ms, 0775ms total)
T4F14 001:766 JLINK_WriteReg(R2, 0x20000164)  returns 0x00 (0000ms, 0775ms total)
T4F14 001:766 JLINK_WriteReg(R3, 0x00000000)  returns 0x00 (0001ms, 0776ms total)
T4F14 001:767 JLINK_WriteReg(R4, 0x00000000)  returns 0x00 (0000ms, 0776ms total)
T4F14 001:767 JLINK_WriteReg(R5, 0x00000000)  returns 0x00 (0000ms, 0776ms total)
T4F14 001:767 JLINK_WriteReg(R6, 0x00000000)  returns 0x00 (0000ms, 0776ms total)
T4F14 001:767 JLINK_WriteReg(R7, 0x00000000)  returns 0x00 (0000ms, 0776ms total)
T4F14 001:767 JLINK_WriteReg(R8, 0x00000000)  returns 0x00 (0001ms, 0777ms total)
T4F14 001:768 JLINK_WriteReg(R9, 0x20000160)  returns 0x00 (0000ms, 0777ms total)
T4F14 001:768 JLINK_WriteReg(R10, 0x00000000)  returns 0x00 (0000ms, 0777ms total)
T4F14 001:768 JLINK_WriteReg(R11, 0x00000000)  returns 0x00 (0000ms, 0777ms total)
T4F14 001:768 JLINK_WriteReg(R12, 0x00000000)  returns 0x00 (0000ms, 0777ms total)
T4F14 001:768 JLINK_WriteReg(R13 (SP), 0x20001000)  returns 0x00 (0000ms, 0777ms total)
T4F14 001:769 JLINK_WriteReg(R14, 0x20000001)  returns 0x00 (0000ms, 0777ms total)
T4F14 001:769 JLINK_WriteReg(R15 (PC), 0x200000F4)  returns 0x00 (0000ms, 0777ms total)
T4F14 001:769 JLINK_WriteReg(XPSR, 0x01000000)  returns 0x00 (0000ms, 0777ms total)
T4F14 001:769 JLINK_WriteReg(MSP, 0x20001000)  returns 0x00 (0000ms, 0777ms total)
T4F14 001:769 JLINK_WriteReg(PSP, 0x20001000)  returns 0x00 (0000ms, 0777ms total)
T4F14 001:769 JLINK_WriteReg(CFBP, 0x00000000)  returns 0x00 (0001ms, 0778ms total)
T4F14 001:770 JLINK_SetBPEx(Addr = 0x20000000, Type = 0xFFFFFFF2)  returns 0x0000000A (0000ms, 0778ms total)
T4F14 001:770 JLINK_Go() (0003ms, 0781ms total)
T4F14 001:773 JLINK_IsHalted()  returns FALSE (0001ms, 0782ms total)
T4F14 001:776 JLINK_IsHalted()  returns FALSE (0000ms, 0781ms total)
T4F14 001:778 JLINK_IsHalted()  returns FALSE (0001ms, 0782ms total)
T4F14 001:837 JLINK_IsHalted() -- CPU_ReadMem(2 bytes @ 0x20000000)  returns TRUE (0005ms, 0786ms total)
T4F14 001:842 JLINK_ReadReg(R15 (PC))  returns 0x20000000 (0000ms, 0781ms total)
T4F14 001:842 JLINK_ClrBPEx(BPHandle = 0x0000000A)  returns 0x00 (0000ms, 0781ms total)
T4F14 001:842 JLINK_ReadReg(R0)  returns 0x00000000 (0000ms, 0781ms total)
T4F14 001:844 JLINK_WriteMem(0x20000164, 0x0400 Bytes, ...) - Data: 40 FF 28 70 60 1E C4 B2 6D 1C 00 2C EF D1 FF F7 ... -- CPU_WriteMem(1024 bytes @ 0x20000164)  returns 0x400 (0013ms, 0794ms total)
T4F14 001:857 JLINK_WriteReg(R0, 0x08001800)  returns 0x00 (0000ms, 0794ms total)
T4F14 001:857 JLINK_WriteReg(R1, 0x00000400)  returns 0x00 (0000ms, 0794ms total)
T4F14 001:857 JLINK_WriteReg(R2, 0x20000164)  returns 0x00 (0000ms, 0794ms total)
T4F14 001:857 JLINK_WriteReg(R3, 0x00000000)  returns 0x00 (0000ms, 0794ms total)
T4F14 001:857 JLINK_WriteReg(R4, 0x00000000)  returns 0x00 (0001ms, 0795ms total)
T4F14 001:858 JLINK_WriteReg(R5, 0x00000000)  returns 0x00 (0000ms, 0795ms total)
T4F14 001:858 JLINK_WriteReg(R6, 0x00000000)  returns 0x00 (0000ms, 0795ms total)
T4F14 001:858 JLINK_WriteReg(R7, 0x00000000)  returns 0x00 (0000ms, 0795ms total)
T4F14 001:858 JLINK_WriteReg(R8, 0x00000000)  returns 0x00 (0000ms, 0795ms total)
T4F14 001:858 JLINK_WriteReg(R9, 0x20000160)  returns 0x00 (0000ms, 0795ms total)
T4F14 001:858 JLINK_WriteReg(R10, 0x00000000)  returns 0x00 (0000ms, 0795ms total)
T4F14 001:858 JLINK_WriteReg(R11, 0x00000000)  returns 0x00 (0000ms, 0795ms total)
T4F14 001:859 JLINK_WriteReg(R12, 0x00000000)  returns 0x00 (0000ms, 0796ms total)
T4F14 001:859 JLINK_WriteReg(R13 (SP), 0x20001000)  returns 0x00 (0000ms, 0796ms total)
T4F14 001:859 JLINK_WriteReg(R14, 0x20000001)  returns 0x00 (0000ms, 0796ms total)
T4F14 001:859 JLINK_WriteReg(R15 (PC), 0x200000F4)  returns 0x00 (0000ms, 0796ms total)
T4F14 001:859 JLINK_WriteReg(XPSR, 0x01000000)  returns 0x00 (0000ms, 0796ms total)
T4F14 001:859 JLINK_WriteReg(MSP, 0x20001000)  returns 0x00 (0000ms, 0796ms total)
T4F14 001:859 JLINK_WriteReg(PSP, 0x20001000)  returns 0x00 (0000ms, 0796ms total)
T4F14 001:859 JLINK_WriteReg(CFBP, 0x00000000)  returns 0x00 (0001ms, 0797ms total)
T4F14 001:860 JLINK_SetBPEx(Addr = 0x20000000, Type = 0xFFFFFFF2)  returns 0x0000000B (0000ms, 0797ms total)
T4F14 001:860 JLINK_Go() (0002ms, 0799ms total)
T4F14 001:862 JLINK_IsHalted()  returns FALSE (0001ms, 0800ms total)
T4F14 001:865 JLINK_IsHalted()  returns FALSE (0000ms, 0799ms total)
T4F14 001:868 JLINK_IsHalted()  returns FALSE (0000ms, 0799ms total)
T4F14 001:871 JLINK_IsHalted()  returns FALSE (0001ms, 0800ms total)
T4F14 001:874 JLINK_IsHalted()  returns FALSE (0000ms, 0799ms total)
T4F14 001:877 JLINK_IsHalted()  returns FALSE (0001ms, 0800ms total)
T4F14 001:880 JLINK_IsHalted()  returns FALSE (0000ms, 0799ms total)
T4F14 001:882 JLINK_IsHalted()  returns FALSE (0000ms, 0799ms total)
T4F14 001:885 JLINK_IsHalted()  returns FALSE (0000ms, 0799ms total)
T4F14 001:957 JLINK_IsHalted() -- CPU_ReadMem(2 bytes @ 0x20000000)  returns TRUE (0004ms, 0803ms total)
T4F14 001:961 JLINK_ReadReg(R15 (PC))  returns 0x20000000 (0000ms, 0799ms total)
T4F14 001:961 JLINK_ClrBPEx(BPHandle = 0x0000000B)  returns 0x00 (0000ms, 0799ms total)
T4F14 001:961 JLINK_ReadReg(R0)  returns 0x00000000 (0000ms, 0799ms total)
T4F14 001:963 JLINK_WriteMem(0x20000164, 0x0400 Bytes, ...) - Data: 4F F0 33 32 C7 4B 01 F0 A3 FE 04 46 0D 46 C3 48 ... -- CPU_WriteMem(1024 bytes @ 0x20000164)  returns 0x400 (0014ms, 0813ms total)
T4F14 001:977 JLINK_WriteReg(R0, 0x08001C00)  returns 0x00 (0000ms, 0813ms total)
T4F14 001:977 JLINK_WriteReg(R1, 0x00000400)  returns 0x00 (0000ms, 0813ms total)
T4F14 001:977 JLINK_WriteReg(R2, 0x20000164)  returns 0x00 (0000ms, 0813ms total)
T4F14 001:977 JLINK_WriteReg(R3, 0x00000000)  returns 0x00 (0000ms, 0813ms total)
T4F14 001:977 JLINK_WriteReg(R4, 0x00000000)  returns 0x00 (0000ms, 0813ms total)
T4F14 001:977 JLINK_WriteReg(R5, 0x00000000)  returns 0x00 (0001ms, 0814ms total)
T4F14 001:978 JLINK_WriteReg(R6, 0x00000000)  returns 0x00 (0000ms, 0814ms total)
T4F14 001:978 JLINK_WriteReg(R7, 0x00000000)  returns 0x00 (0000ms, 0814ms total)
T4F14 001:978 JLINK_WriteReg(R8, 0x00000000)  returns 0x00 (0000ms, 0814ms total)
T4F14 001:978 JLINK_WriteReg(R9, 0x20000160)  returns 0x00 (0000ms, 0814ms total)
T4F14 001:978 JLINK_WriteReg(R10, 0x00000000)  returns 0x00 (0000ms, 0814ms total)
T4F14 001:978 JLINK_WriteReg(R11, 0x00000000)  returns 0x00 (0000ms, 0814ms total)
T4F14 001:978 JLINK_WriteReg(R12, 0x00000000)  returns 0x00 (0000ms, 0814ms total)
T4F14 001:978 JLINK_WriteReg(R13 (SP), 0x20001000)  returns 0x00 (0001ms, 0815ms total)
T4F14 001:979 JLINK_WriteReg(R14, 0x20000001)  returns 0x00 (0000ms, 0815ms total)
T4F14 001:979 JLINK_WriteReg(R15 (PC), 0x200000F4)  returns 0x00 (0000ms, 0815ms total)
T4F14 001:979 JLINK_WriteReg(XPSR, 0x01000000)  returns 0x00 (0000ms, 0815ms total)
T4F14 001:979 JLINK_WriteReg(MSP, 0x20001000)  returns 0x00 (0000ms, 0815ms total)
T4F14 001:979 JLINK_WriteReg(PSP, 0x20001000)  returns 0x00 (0000ms, 0815ms total)
T4F14 001:979 JLINK_WriteReg(CFBP, 0x00000000)  returns 0x00 (0000ms, 0815ms total)
T4F14 001:979 JLINK_SetBPEx(Addr = 0x20000000, Type = 0xFFFFFFF2)  returns 0x0000000C (0000ms, 0815ms total)
T4F14 001:979 JLINK_Go() (0003ms, 0818ms total)
T4F14 001:982 JLINK_IsHalted()  returns FALSE (0001ms, 0819ms total)
T4F14 001:985 JLINK_IsHalted()  returns FALSE (0000ms, 0818ms total)
T4F14 001:988 JLINK_IsHalted()  returns FALSE (0001ms, 0819ms total)
T4F14 001:991 JLINK_IsHalted()  returns FALSE (0000ms, 0818ms total)
T4F14 001:994 JLINK_IsHalted()  returns FALSE (0000ms, 0818ms total)
T4F14 002:054 JLINK_IsHalted() -- CPU_ReadMem(2 bytes @ 0x20000000)  returns TRUE (0004ms, 0822ms total)
T4F14 002:058 JLINK_ReadReg(R15 (PC))  returns 0x20000000 (0000ms, 0818ms total)
T4F14 002:058 JLINK_ClrBPEx(BPHandle = 0x0000000C)  returns 0x00 (0001ms, 0819ms total)
T4F14 002:059 JLINK_ReadReg(R0)  returns 0x00000000 (0000ms, 0819ms total)
T4F14 002:061 JLINK_WriteMem(0x20000164, 0x0400 Bytes, ...) - Data: DD E9 04 23 01 F0 84 FA CD E9 06 01 01 F0 4E FA ... -- CPU_WriteMem(1024 bytes @ 0x20000164)  returns 0x400 (0013ms, 0832ms total)
T4F14 002:074 JLINK_WriteReg(R0, 0x08002000)  returns 0x00 (0000ms, 0832ms total)
T4F14 002:074 JLINK_WriteReg(R1, 0x00000400)  returns 0x00 (0000ms, 0832ms total)
T4F14 002:074 JLINK_WriteReg(R2, 0x20000164)  returns 0x00 (0001ms, 0833ms total)
T4F14 002:075 JLINK_WriteReg(R3, 0x00000000)  returns 0x00 (0000ms, 0833ms total)
T4F14 002:075 JLINK_WriteReg(R4, 0x00000000)  returns 0x00 (0000ms, 0833ms total)
T4F14 002:075 JLINK_WriteReg(R5, 0x00000000)  returns 0x00 (0000ms, 0833ms total)
T4F14 002:075 JLINK_WriteReg(R6, 0x00000000)  returns 0x00 (0000ms, 0833ms total)
T4F14 002:075 JLINK_WriteReg(R7, 0x00000000)  returns 0x00 (0000ms, 0833ms total)
T4F14 002:076 JLINK_WriteReg(R8, 0x00000000)  returns 0x00 (0000ms, 0833ms total)
T4F14 002:076 JLINK_WriteReg(R9, 0x20000160)  returns 0x00 (0000ms, 0833ms total)
T4F14 002:076 JLINK_WriteReg(R10, 0x00000000)  returns 0x00 (0000ms, 0833ms total)
T4F14 002:076 JLINK_WriteReg(R11, 0x00000000)  returns 0x00 (0000ms, 0833ms total)
T4F14 002:076 JLINK_WriteReg(R12, 0x00000000)  returns 0x00 (0000ms, 0833ms total)
T4F14 002:076 JLINK_WriteReg(R13 (SP), 0x20001000)  returns 0x00 (0000ms, 0833ms total)
T4F14 002:077 JLINK_WriteReg(R14, 0x20000001)  returns 0x00 (0000ms, 0834ms total)
T4F14 002:077 JLINK_WriteReg(R15 (PC), 0x200000F4)  returns 0x00 (0000ms, 0834ms total)
T4F14 002:077 JLINK_WriteReg(XPSR, 0x01000000)  returns 0x00 (0000ms, 0834ms total)
T4F14 002:077 JLINK_WriteReg(MSP, 0x20001000)  returns 0x00 (0000ms, 0834ms total)
T4F14 002:077 JLINK_WriteReg(PSP, 0x20001000)  returns 0x00 (0000ms, 0834ms total)
T4F14 002:077 JLINK_WriteReg(CFBP, 0x00000000)  returns 0x00 (0001ms, 0835ms total)
T4F14 002:078 JLINK_SetBPEx(Addr = 0x20000000, Type = 0xFFFFFFF2)  returns 0x0000000D (0000ms, 0835ms total)
T4F14 002:078 JLINK_Go() (0002ms, 0837ms total)
T4F14 002:080 JLINK_IsHalted()  returns FALSE (0001ms, 0838ms total)
T4F14 002:083 JLINK_IsHalted()  returns FALSE (0000ms, 0837ms total)
T4F14 002:086 JLINK_IsHalted()  returns FALSE (0001ms, 0838ms total)
T4F14 002:089 JLINK_IsHalted()  returns FALSE (0001ms, 0838ms total)
T4F14 002:092 JLINK_IsHalted()  returns FALSE (0000ms, 0837ms total)
T4F14 002:095 JLINK_IsHalted()  returns FALSE (0000ms, 0837ms total)
T4F14 002:098 JLINK_IsHalted()  returns FALSE (0000ms, 0837ms total)
T4F14 002:100 JLINK_IsHalted()  returns FALSE (0000ms, 0837ms total)
T4F14 002:103 JLINK_IsHalted()  returns FALSE (0000ms, 0837ms total)
T4F14 002:180 JLINK_IsHalted() -- CPU_ReadMem(2 bytes @ 0x20000000)  returns TRUE (0005ms, 0842ms total)
T4F14 002:185 JLINK_ReadReg(R15 (PC))  returns 0x20000000 (0000ms, 0837ms total)
T4F14 002:185 JLINK_ClrBPEx(BPHandle = 0x0000000D)  returns 0x00 (0000ms, 0837ms total)
T4F14 002:185 JLINK_ReadReg(R0)  returns 0x00000000 (0000ms, 0837ms total)
T4F14 002:187 JLINK_WriteMem(0x20000164, 0x0400 Bytes, ...) - Data: 14 20 FE F7 3B FC 0C 20 03 23 00 90 F0 48 00 21 ... -- CPU_WriteMem(1024 bytes @ 0x20000164)  returns 0x400 (0013ms, 0850ms total)
T4F14 002:200 JLINK_WriteReg(R0, 0x08002400)  returns 0x00 (0000ms, 0850ms total)
T4F14 002:200 JLINK_WriteReg(R1, 0x00000400)  returns 0x00 (0000ms, 0850ms total)
T4F14 002:200 JLINK_WriteReg(R2, 0x20000164)  returns 0x00 (0000ms, 0850ms total)
T4F14 002:200 JLINK_WriteReg(R3, 0x00000000)  returns 0x00 (0000ms, 0850ms total)
T4F14 002:200 JLINK_WriteReg(R4, 0x00000000)  returns 0x00 (0001ms, 0851ms total)
T4F14 002:201 JLINK_WriteReg(R5, 0x00000000)  returns 0x00 (0000ms, 0851ms total)
T4F14 002:201 JLINK_WriteReg(R6, 0x00000000)  returns 0x00 (0000ms, 0851ms total)
T4F14 002:201 JLINK_WriteReg(R7, 0x00000000)  returns 0x00 (0000ms, 0851ms total)
T4F14 002:201 JLINK_WriteReg(R8, 0x00000000)  returns 0x00 (0000ms, 0851ms total)
T4F14 002:201 JLINK_WriteReg(R9, 0x20000160)  returns 0x00 (0000ms, 0851ms total)
T4F14 002:201 JLINK_WriteReg(R10, 0x00000000)  returns 0x00 (0000ms, 0851ms total)
T4F14 002:201 JLINK_WriteReg(R11, 0x00000000)  returns 0x00 (0000ms, 0851ms total)
T4F14 002:202 JLINK_WriteReg(R12, 0x00000000)  returns 0x00 (0000ms, 0852ms total)
T4F14 002:202 JLINK_WriteReg(R13 (SP), 0x20001000)  returns 0x00 (0000ms, 0852ms total)
T4F14 002:202 JLINK_WriteReg(R14, 0x20000001)  returns 0x00 (0000ms, 0852ms total)
T4F14 002:202 JLINK_WriteReg(R15 (PC), 0x200000F4)  returns 0x00 (0000ms, 0852ms total)
T4F14 002:202 JLINK_WriteReg(XPSR, 0x01000000)  returns 0x00 (0000ms, 0852ms total)
T4F14 002:202 JLINK_WriteReg(MSP, 0x20001000)  returns 0x00 (0000ms, 0852ms total)
T4F14 002:202 JLINK_WriteReg(PSP, 0x20001000)  returns 0x00 (0000ms, 0852ms total)
T4F14 002:202 JLINK_WriteReg(CFBP, 0x00000000)  returns 0x00 (0001ms, 0853ms total)
T4F14 002:203 JLINK_SetBPEx(Addr = 0x20000000, Type = 0xFFFFFFF2)  returns 0x0000000E (0000ms, 0853ms total)
T4F14 002:203 JLINK_Go() (0002ms, 0855ms total)
T4F14 002:205 JLINK_IsHalted()  returns FALSE (0001ms, 0856ms total)
T4F14 002:208 JLINK_IsHalted()  returns FALSE (0001ms, 0856ms total)
T4F14 002:211 JLINK_IsHalted()  returns FALSE (0001ms, 0856ms total)
T4F14 002:214 JLINK_IsHalted()  returns FALSE (0000ms, 0855ms total)
T4F14 002:291 JLINK_IsHalted() -- CPU_ReadMem(2 bytes @ 0x20000000)  returns TRUE (0004ms, 0859ms total)
T4F14 002:295 JLINK_ReadReg(R15 (PC))  returns 0x20000000 (0000ms, 0855ms total)
T4F14 002:295 JLINK_ClrBPEx(BPHandle = 0x0000000E)  returns 0x00 (0000ms, 0855ms total)
T4F14 002:295 JLINK_ReadReg(R0)  returns 0x00000000 (0001ms, 0856ms total)
T4F14 002:298 JLINK_WriteMem(0x20000164, 0x0400 Bytes, ...) - Data: BC 03 00 20 47 52 3A 00 B8 03 00 20 50 49 54 3A ... -- CPU_WriteMem(1024 bytes @ 0x20000164)  returns 0x400 (0012ms, 0868ms total)
T4F14 002:311 JLINK_WriteReg(R0, 0x08002800)  returns 0x00 (0000ms, 0869ms total)
T4F14 002:311 JLINK_WriteReg(R1, 0x00000400)  returns 0x00 (0000ms, 0869ms total)
T4F14 002:311 JLINK_WriteReg(R2, 0x20000164)  returns 0x00 (0000ms, 0869ms total)
T4F14 002:311 JLINK_WriteReg(R3, 0x00000000)  returns 0x00 (0000ms, 0869ms total)
T4F14 002:311 JLINK_WriteReg(R4, 0x00000000)  returns 0x00 (0000ms, 0869ms total)
T4F14 002:311 JLINK_WriteReg(R5, 0x00000000)  returns 0x00 (0000ms, 0869ms total)
T4F14 002:311 JLINK_WriteReg(R6, 0x00000000)  returns 0x00 (0001ms, 0870ms total)
T4F14 002:312 JLINK_WriteReg(R7, 0x00000000)  returns 0x00 (0000ms, 0870ms total)
T4F14 002:312 JLINK_WriteReg(R8, 0x00000000)  returns 0x00 (0000ms, 0870ms total)
T4F14 002:312 JLINK_WriteReg(R9, 0x20000160)  returns 0x00 (0000ms, 0870ms total)
T4F14 002:312 JLINK_WriteReg(R10, 0x00000000)  returns 0x00 (0000ms, 0870ms total)
T4F14 002:312 JLINK_WriteReg(R11, 0x00000000)  returns 0x00 (0000ms, 0870ms total)
T4F14 002:312 JLINK_WriteReg(R12, 0x00000000)  returns 0x00 (0000ms, 0870ms total)
T4F14 002:312 JLINK_WriteReg(R13 (SP), 0x20001000)  returns 0x00 (0000ms, 0870ms total)
T4F14 002:312 JLINK_WriteReg(R14, 0x20000001)  returns 0x00 (0001ms, 0871ms total)
T4F14 002:313 JLINK_WriteReg(R15 (PC), 0x200000F4)  returns 0x00 (0000ms, 0871ms total)
T4F14 002:313 JLINK_WriteReg(XPSR, 0x01000000)  returns 0x00 (0000ms, 0871ms total)
T4F14 002:313 JLINK_WriteReg(MSP, 0x20001000)  returns 0x00 (0000ms, 0871ms total)
T4F14 002:313 JLINK_WriteReg(PSP, 0x20001000)  returns 0x00 (0000ms, 0871ms total)
T4F14 002:313 JLINK_WriteReg(CFBP, 0x00000000)  returns 0x00 (0000ms, 0871ms total)
T4F14 002:313 JLINK_SetBPEx(Addr = 0x20000000, Type = 0xFFFFFFF2)  returns 0x0000000F (0000ms, 0871ms total)
T4F14 002:313 JLINK_Go() (0003ms, 0874ms total)
T4F14 002:316 JLINK_IsHalted()  returns FALSE (0001ms, 0875ms total)
T4F14 002:319 JLINK_IsHalted()  returns FALSE (0000ms, 0874ms total)
T4F14 002:322 JLINK_IsHalted()  returns FALSE (0001ms, 0875ms total)
T4F14 002:380 JLINK_IsHalted() -- CPU_ReadMem(2 bytes @ 0x20000000)  returns TRUE (0004ms, 0878ms total)
T4F14 002:385 JLINK_ReadReg(R15 (PC))  returns 0x20000000 (0000ms, 0874ms total)
T4F14 002:385 JLINK_ClrBPEx(BPHandle = 0x0000000F)  returns 0x00 (0000ms, 0874ms total)
T4F14 002:385 JLINK_ReadReg(R0)  returns 0x00000000 (0000ms, 0874ms total)
T4F14 002:388 JLINK_WriteMem(0x20000164, 0x0400 Bytes, ...) - Data: 00 1C 01 40 00 20 01 40 00 00 01 40 00 00 20 42 ... -- CPU_WriteMem(1024 bytes @ 0x20000164)  returns 0x400 (0013ms, 0887ms total)
T4F14 002:401 JLINK_WriteReg(R0, 0x08002C00)  returns 0x00 (0000ms, 0887ms total)
T4F14 002:401 JLINK_WriteReg(R1, 0x00000400)  returns 0x00 (0000ms, 0887ms total)
T4F14 002:401 JLINK_WriteReg(R2, 0x20000164)  returns 0x00 (0000ms, 0887ms total)
T4F14 002:401 JLINK_WriteReg(R3, 0x00000000)  returns 0x00 (0000ms, 0887ms total)
T4F14 002:401 JLINK_WriteReg(R4, 0x00000000)  returns 0x00 (0001ms, 0888ms total)
T4F14 002:402 JLINK_WriteReg(R5, 0x00000000)  returns 0x00 (0000ms, 0888ms total)
T4F14 002:402 JLINK_WriteReg(R6, 0x00000000)  returns 0x00 (0000ms, 0888ms total)
T4F14 002:402 JLINK_WriteReg(R7, 0x00000000)  returns 0x00 (0000ms, 0888ms total)
T4F14 002:402 JLINK_WriteReg(R8, 0x00000000)  returns 0x00 (0000ms, 0888ms total)
T4F14 002:402 JLINK_WriteReg(R9, 0x20000160)  returns 0x00 (0000ms, 0888ms total)
T4F14 002:402 JLINK_WriteReg(R10, 0x00000000)  returns 0x00 (0000ms, 0888ms total)
T4F14 002:402 JLINK_WriteReg(R11, 0x00000000)  returns 0x00 (0000ms, 0888ms total)
T4F14 002:403 JLINK_WriteReg(R12, 0x00000000)  returns 0x00 (0000ms, 0888ms total)
T4F14 002:403 JLINK_WriteReg(R13 (SP), 0x20001000)  returns 0x00 (0000ms, 0888ms total)
T4F14 002:403 JLINK_WriteReg(R14, 0x20000001)  returns 0x00 (0000ms, 0888ms total)
T4F14 002:403 JLINK_WriteReg(R15 (PC), 0x200000F4)  returns 0x00 (0000ms, 0888ms total)
T4F14 002:403 JLINK_WriteReg(XPSR, 0x01000000)  returns 0x00 (0000ms, 0888ms total)
T4F14 002:403 JLINK_WriteReg(MSP, 0x20001000)  returns 0x00 (0000ms, 0888ms total)
T4F14 002:403 JLINK_WriteReg(PSP, 0x20001000)  returns 0x00 (0000ms, 0888ms total)
T4F14 002:403 JLINK_WriteReg(CFBP, 0x00000000)  returns 0x00 (0001ms, 0889ms total)
